T0CA0 7124:604.416   SEGGER J-Link V8.10j Log File
T0CA0 7124:605.440   DLL Compiled: Dec  2 2024 14:23:20
T0CA0 7124:605.440   Logging started @ 2024-12-06 03:47
T0CA0 7124:605.440   Process: C:\Keil_v5\UV4\UV4.exe
T0CA0 7124:605.440 - 1289343.104ms 
T0CA0 7124:605.440 JLINK_SetWarnOutHandler(...)
T0CA0 7124:605.440 - 0.166ms 
T0CA0 7124:605.952 JLINK_OpenEx(...)
T0CA0 7124:612.608   Firmware: J-Link V9 compiled Jun  2 2222 22:22:22
T0CA0 7124:615.168   Firmware: J-Link V9 compiled Jun  2 2222 22:22:22
T0CA0 7124:616.192   Decompressing FW timestamp took 92 us
T0CA0 7124:624.896   Hardware: V9.60
T0CA0 7124:625.920   S/N: 59610165
T0CA0 7124:626.432   OEM: SEGGER
T0CA0 7124:627.456   Feature(s): GDB, RDI, FlashBP, FlashDL, JFlash, RDDI
T0CA0 7124:628.992   Bootloader: (FW returned invalid version)
T0CA0 7124:631.552   TELNET listener socket opened on port 19021
T0CA0 7124:638.208   WEBSRV WEBSRV_Init(): Starting webserver thread(s)
T0CA0 7124:638.720   WEBSRV Webserver running on local port 19080
T0CA0 7124:638.720   Looking for J-Link GUI Server exe at: C:\Keil_v5\ARM\Segger\JLinkGUIServer.exe
T0CA0 7124:638.720   Looking for J-Link GUI Server exe at: C:\Program Files\SEGGER\JLink_V810j\JLinkGUIServer.exe
T0CA0 7124:638.720   Forking J-Link GUI Server: C:\Program Files\SEGGER\JLink_V810j\JLinkGUIServer.exe
T0CA0 7124:670.976   J-Link GUI Server info: "J-Link GUI server V8.10j "
T0CA0 7124:673.536 - 67.460ms returns "O.K."
T0CA0 7124:673.536 JLINK_GetEmuCaps()
T0CA0 7124:674.048 - 0.512ms returns 0xB9FF7BBF
T0CA0 7124:674.048 JLINK_TIF_GetAvailable(...)
T0CA0 7124:675.072 - 0.770ms 
T0CA0 7124:675.072 JLINK_SetErrorOutHandler(...)
T0CA0 7124:675.584 - 0.412ms 
T0CA0 7124:675.584 JLINK_ExecCommand("ProjectFile = "Z:\SomeProjects\Some_Projects\RC523_RWIC_KEIL_V1.1\MDK-ARM\JLinkSettings.ini"", ...). 
T0CA0 7124:679.680 - 3.782ms returns 0x00
T0CA0 7124:702.720 JLINK_ExecCommand("Device = STM32F072C8Tx", ...). 
T0CA0 7124:736.512   Device "STM32F072C8" selected.
T0CA0 7124:737.024 - 34.385ms returns 0x00
T0CA0 7124:738.048 JLINK_ExecCommand("DisableConnectionTimeout", ...). 
T0CA0 7124:738.048   ERROR: Unknown command
T0CA0 7124:739.072 - 0.272ms returns 0x01
T0CA0 7124:739.072 JLINK_GetHardwareVersion()
T0CA0 7124:739.072 - 0.309ms returns 96000
T0CA0 7124:739.072 JLINK_GetDLLVersion()
T0CA0 7124:739.072 - 0.045ms returns 81010
T0CA0 7124:739.072 JLINK_GetOEMString(...)
T0CA0 7124:739.584 JLINK_GetFirmwareString(...)
T0CA0 7124:739.584 - 0.273ms 
T0CA0 7124:751.360 JLINK_GetDLLVersion()
T0CA0 7124:751.360 - 0.340ms returns 81010
T0CA0 7124:751.360 JLINK_GetCompileDateTime()
T0CA0 7124:751.872 - 0.156ms 
T0CA0 7124:755.456 JLINK_GetFirmwareString(...)
T0CA0 7124:755.456 - 0.300ms 
T0CA0 7124:758.528 JLINK_GetHardwareVersion()
T0CA0 7124:759.552 - 0.243ms returns 96000
T0CA0 7124:762.624 JLINK_GetSN()
T0CA0 7124:763.648 - 0.274ms returns 59610165
T0CA0 7124:769.280 JLINK_GetOEMString(...)
T0CA0 7124:780.032 JLINK_TIF_Select(JLINKARM_TIF_SWD)
T0CA0 7124:783.104 - 3.206ms returns 0x00
T0CA0 7124:783.104 JLINK_HasError()
T0CA0 7124:783.104 JLINK_SetSpeed(500)
T0CA0 7124:784.128 - 0.464ms 
T0CA0 7124:784.128 JLINK_GetId()
T0CA0 7124:788.224   InitTarget() start
T0CA0 7124:788.736    J-Link Script File: Executing InitTarget()
T0CA0 7124:792.832   SWD selected. Executing JTAG -> SWD switching sequence.
T0CA0 7124:802.048   DAP initialized successfully.
T0CA0 7124:829.184   InitTarget() end - Took 31.8ms
T0CA0 7124:836.352   Found SW-DP with ID 0x0BB11477
T0CA0 7124:841.472   Old FW that does not support reading DPIDR via DAP jobs
T0CA0 7124:850.176   DPv0 detected
T0CA0 7124:855.296   CoreSight SoC-400 or earlier
T0CA0 7124:859.392   Scanning AP map to find all available APs
T0CA0 7124:866.560   AP[1]: Stopped AP scan as end of AP map has been reached
T0CA0 7124:870.656   AP[0]: AHB-AP (IDR: 0x04770021, ADDR: 0x00000000)
T0CA0 7124:874.752   Iterating through AP map to find AHB-AP to use
T0CA0 7124:882.432   AP[0]: Core found
T0CA0 7124:886.528   AP[0]: AHB-AP ROM base: 0xE00FF000
T0CA0 7124:892.160   CPUID register: 0x410CC200. Implementer code: 0x41 (ARM)
T0CA0 7124:896.768   Found Cortex-M0 r0p0, Little endian.
T0CA0 7124:898.816   -- Max. mem block: 0x00010C70
T0CA0 7124:900.864   CPU_ReadMem(4 bytes @ 0xE000EDF0)
T0CA0 7124:902.912   CPU_ReadMem(4 bytes @ 0xE0002000)
T0CA0 7124:908.544   FPUnit: 4 code (BP) slots and 0 literal slots
T0CA0 7124:909.056   CPU_ReadMem(4 bytes @ 0xE000EDFC)
T0CA0 7124:911.104   CPU_WriteMem(4 bytes @ 0xE000EDFC)
T0CA0 7124:912.640   CPU_ReadMem(4 bytes @ 0xE0001000)
T0CA0 7124:914.176   CPU_WriteMem(4 bytes @ 0xE0001000)
T0CA0 7124:919.808   CoreSight components:
T0CA0 7124:924.928   ROMTbl[0] @ E00FF000
T0CA0 7124:925.440   CPU_ReadMem(64 bytes @ 0xE00FF000)
T0CA0 7124:929.024   CPU_ReadMem(32 bytes @ 0xE000EFE0)
T0CA0 7124:935.680   [0][0]: E000E000 CID B105E00D PID 000BB008 SCS
T0CA0 7124:936.192   CPU_ReadMem(32 bytes @ 0xE0001FE0)
T0CA0 7124:942.848   [0][1]: E0001000 CID B105E00D PID 000BB00A DWT
T0CA0 7124:943.872   CPU_ReadMem(32 bytes @ 0xE0002FE0)
T0CA0 7124:949.504   [0][2]: E0002000 CID B105E00D PID 000BB00B FPB
T0CA0 7124:950.016 - 166.490ms returns 0x0BB11477
T0CA0 7124:951.040 JLINK_GetDLLVersion()
T0CA0 7124:951.040 - 0.139ms returns 81010
T0CA0 7124:951.040 JLINK_CORE_GetFound()
T0CA0 7124:952.064 - 0.233ms returns 0x60000FF
T0CA0 7124:952.064 JLINK_GetDebugInfo(0x100 = JLINKARM_ROM_TABLE_ADDR_INDEX)
T0CA0 7124:952.064   Value=0xE00FF000
T0CA0 7124:952.064 - 0.227ms returns 0
T0CA0 7124:956.160 JLINK_GetDebugInfo(0x100 = JLINKARM_ROM_TABLE_ADDR_INDEX)
T0CA0 7124:956.160   Value=0xE00FF000
T0CA0 7124:956.160 - 0.399ms returns 0
T0CA0 7124:956.160 JLINK_GetDebugInfo(0x101 = JLINKARM_DEBUG_INFO_ETM_ADDR_INDEX)
T0CA0 7124:956.160   Value=0x00000000
T0CA0 7124:956.160 - 0.172ms returns 0
T0CA0 7124:956.160 JLINK_ReadMemEx(0xE0041FF0, 0x10 Bytes, Flags = 0x02000004)
T0CA0 7124:956.672   CPU_ReadMem(16 bytes @ 0xE0041FF0)
T0CA0 7124:958.208   Data:  00 00 00 00 00 00 00 00 00 00 00 00 00 00 00 00
T0CA0 7124:959.232 - 2.587ms returns 16 (0x10)
T0CA0 7124:959.232 JLINK_GetDebugInfo(0x102 = JLINKARM_DEBUG_INFO_MTB_ADDR_INDEX)
T0CA0 7124:959.232   Value=0x00000000
T0CA0 7124:960.256 - 0.443ms returns 0
T0CA0 7124:960.256 JLINK_GetDebugInfo(0x103 = JLINKARM_DEBUG_INFO_TPIU_ADDR_INDEX)
T0CA0 7124:960.256   Value=0x00000000
T0CA0 7124:960.256 - 0.411ms returns 0
T0CA0 7124:960.768 JLINK_ReadMemEx(0xE0040FF0, 0x10 Bytes, Flags = 0x02000004)
T0CA0 7124:960.768   CPU_ReadMem(16 bytes @ 0xE0040FF0)
T0CA0 7124:962.304   Data:  00 00 00 00 00 00 00 00 00 00 00 00 00 00 00 00
T0CA0 7124:962.304 - 2.141ms returns 16 (0x10)
T0CA0 7124:963.328 JLINK_GetDebugInfo(0x104 = JLINKARM_DEBUG_INFO_ITM_ADDR_INDEX)
T0CA0 7124:963.328   Value=0xE0000000
T0CA0 7124:963.328 - 0.172ms returns 0
T0CA0 7124:963.328 JLINK_GetDebugInfo(0x105 = JLINKARM_DEBUG_INFO_DWT_ADDR_INDEX)
T0CA0 7124:963.328   Value=0xE0001000
T0CA0 7124:963.328 - 0.223ms returns 0
T0CA0 7124:963.328 JLINK_GetDebugInfo(0x106 = JLINKARM_DEBUG_INFO_FPB_ADDR_INDEX)
T0CA0 7124:963.328   Value=0xE0002000
T0CA0 7124:963.328 - 0.191ms returns 0
T0CA0 7124:964.352 JLINK_GetDebugInfo(0x107 = JLINKARM_DEBUG_INFO_NVIC_ADDR_INDEX)
T0CA0 7124:964.352   Value=0xE000E000
T0CA0 7124:964.352 - 0.232ms returns 0
T0CA0 7124:964.352 JLINK_GetDebugInfo(0x10C = JLINKARM_DEBUG_INFO_DBG_ADDR_INDEX)
T0CA0 7124:964.352   Value=0xE000EDF0
T0CA0 7124:964.352 - 0.227ms returns 0
T0CA0 7124:964.352 JLINK_GetDebugInfo(0x01 = Unknown)
T0CA0 7124:964.352   Value=0x00000000
T0CA0 7124:964.864 - 0.460ms returns 0
T0CA0 7124:964.864 JLINK_ReadMemU32(0xE000ED00, 0x1 Items)
T0CA0 7124:964.864   CPU_ReadMem(4 bytes @ 0xE000ED00)
T0CA0 7124:966.400   Data:  00 C2 0C 41
T0CA0 7124:967.424   Debug reg: CPUID
T0CA0 7124:967.424 - 2.406ms returns 1 (0x1)
T0CA0 7124:967.424 JLINK_GetDebugInfo(0x10F = JLINKARM_DEBUG_INFO_HAS_CORTEX_M_SECURITY_EXT_INDEX)
T0CA0 7124:967.424   Value=0x00000000
T0CA0 7124:968.448 - 0.421ms returns 0
T0CA0 7124:968.448 JLINK_HasError()
T0CA0 7124:968.448 JLINK_SetResetType(JLINKARM_CM3_RESET_TYPE_NORMAL)
T0CA0 7124:968.448 - 0.181ms returns JLINKARM_CM3_RESET_TYPE_NORMAL
T0CA0 7124:968.448 JLINK_Reset()
T0CA0 7124:968.960   JLINK_GetResetTypeDesc
T0CA0 7124:968.960   - 0.157ms 
T0CA0 7124:972.544   Reset type: NORMAL (https://wiki.segger.com/J-Link_Reset_Strategies)
T0CA0 7124:973.056   CPU is running
T0CA0 7124:973.056   CPU_WriteMem(4 bytes @ 0xE000EDF0)
T0CA0 7124:974.592   CPU is running
T0CA0 7124:974.592   CPU_WriteMem(4 bytes @ 0xE000EDFC)
T0CA0 7124:979.712   Reset: Halt core after reset via DEMCR.VC_CORERESET.
T0CA0 7124:988.928   Reset: Reset device via AIRCR.SYSRESETREQ.
T0CA0 7124:989.440   CPU is running
T0CA0 7124:989.440   CPU_WriteMem(4 bytes @ 0xE000ED0C)
T0CA0 7125:047.808   CPU_ReadMem(4 bytes @ 0xE000EDF0)
T0CA0 7125:049.344   CPU_ReadMem(4 bytes @ 0xE000EDF0)
T0CA0 7125:062.656   CPU_WriteMem(4 bytes @ 0xE000EDFC)
T0CA0 7125:069.824   CPU_ReadMem(4 bytes @ 0xE000EDF0)
T0CA0 7125:083.136   CPU_WriteMem(4 bytes @ 0xE0002000)
T0CA0 7125:084.672   CPU_ReadMem(4 bytes @ 0xE000EDFC)
T0CA0 7125:086.208   CPU_ReadMem(4 bytes @ 0xE0001000)
T0CA0 7125:087.744   CPU_WriteMem(4 bytes @ 0xE0001000)
T0CA0 7125:089.280 - 120.683ms 
T0CA0 7125:089.280 JLINK_Halt()
T0CA0 7125:089.280 - 0.185ms returns 0x00
T0CA0 7125:090.304 JLINK_ReadMemU32(0xE000EDF0, 0x1 Items)
T0CA0 7125:090.304   CPU_ReadMem(4 bytes @ 0xE000EDF0)
T0CA0 7125:091.840   Data:  03 00 03 00
T0CA0 7125:091.840   Debug reg: DHCSR
T0CA0 7125:091.840 - 2.114ms returns 1 (0x1)
T0CA0 7125:091.840 JLINK_WriteU32(0xE000EDF0, 0xA05F0003)
T0CA0 7125:092.864   Debug reg: DHCSR
T0CA0 7125:092.864   CPU_WriteMem(4 bytes @ 0xE000EDF0)
T0CA0 7125:094.400 - 2.353ms returns 0 (0x00000000)
T0CA0 7125:095.424 JLINK_WriteU32(0xE000EDFC, 0x01000000)
T0CA0 7125:095.424   Debug reg: DEMCR
T0CA0 7125:095.424   CPU_WriteMem(4 bytes @ 0xE000EDFC)
T0CA0 7125:096.960 - 1.867ms returns 0 (0x00000000)
T0CA0 7125:113.344 JLINK_GetHWStatus(...)
T0CA0 7125:113.856 - 1.051ms returns 0
T0CA0 7125:125.632 JLINK_GetNumBPUnits(Type = 0xFFFFFF00)
T0CA0 7125:125.632 - 0.687ms returns 0x04
T0CA0 7125:126.144 JLINK_GetNumBPUnits(Type = 0xF0)
T0CA0 7125:126.144 - 0.104ms returns 0x2000
T0CA0 7125:127.168 JLINK_GetNumWPUnits()
T0CA0 7125:128.192 - 0.235ms returns 2
T0CA0 7125:139.456 JLINK_GetSpeed()
T0CA0 7125:140.480 - 0.223ms returns 500
T0CA0 7125:147.648 JLINK_ReadMemU32(0xE000E004, 0x1 Items)
T0CA0 7125:148.672   CPU_ReadMem(4 bytes @ 0xE000E004)
T0CA0 7125:149.184   Data:  00 00 00 00
T0CA0 7125:150.208 - 2.044ms returns 1 (0x1)
T0CA0 7125:150.208 JLINK_Halt()
T0CA0 7125:150.208 - 0.169ms returns 0x00
T0CA0 7125:150.208 JLINK_IsHalted()
T0CA0 7125:150.208 - 0.047ms returns TRUE
T0CA0 7125:151.744 JLINK_WriteMem(0x20000000, 0x170 Bytes, ...)
T0CA0 7125:151.744   Data:  00 BE 0A E0 0D 78 2D 06 68 40 08 24 40 00 00 D3 ...
T0CA0 7125:152.768   CPU_WriteMem(368 bytes @ 0x20000000)
T0CA0 7125:162.496 - 10.903ms returns 0x170
T0CA0 7125:163.008 JLINK_HasError()
T0CA0 7125:163.008 JLINK_WriteReg(R0, 0x08000000)
T0CA0 7125:163.008 - 0.194ms returns 0
T0CA0 7125:163.008 JLINK_WriteReg(R1, 0x007A1200)
T0CA0 7125:163.008 - 0.107ms returns 0
T0CA0 7125:164.032 JLINK_WriteReg(R2, 0x00000001)
T0CA0 7125:164.032 - 0.107ms returns 0
T0CA0 7125:164.032 JLINK_WriteReg(R3, 0x00000000)
T0CA0 7125:164.032 - 0.043ms returns 0
T0CA0 7125:164.032 JLINK_WriteReg(R4, 0x00000000)
T0CA0 7125:164.032 - 0.044ms returns 0
T0CA0 7125:165.056 JLINK_WriteReg(R5, 0x00000000)
T0CA0 7125:165.056 - 0.048ms returns 0
T0CA0 7125:165.056 JLINK_WriteReg(R6, 0x00000000)
T0CA0 7125:165.056 - 0.119ms returns 0
T0CA0 7125:165.056 JLINK_WriteReg(R7, 0x00000000)
T0CA0 7125:165.056 - 0.238ms returns 0
T0CA0 7125:165.568 JLINK_WriteReg(R8, 0x00000000)
T0CA0 7125:165.568 - 0.118ms returns 0
T0CA0 7125:165.568 JLINK_WriteReg(R9, 0x2000016C)
T0CA0 7125:165.568 - 0.157ms returns 0
T0CA0 7125:165.568 JLINK_WriteReg(R10, 0x00000000)
T0CA0 7125:165.568 - 0.047ms returns 0
T0CA0 7125:165.568 JLINK_WriteReg(R11, 0x00000000)
T0CA0 7125:165.568 - 0.184ms returns 0
T0CA0 7125:166.592 JLINK_WriteReg(R12, 0x00000000)
T0CA0 7125:166.592 - 0.088ms returns 0
T0CA0 7125:166.592 JLINK_WriteReg(R13 (SP), 0x20001000)
T0CA0 7125:166.592 - 0.120ms returns 0
T0CA0 7125:166.592 JLINK_WriteReg(R14, 0x20000001)
T0CA0 7125:166.592 - 0.183ms returns 0
T0CA0 7125:167.104 JLINK_WriteReg(R15 (PC), 0x20000038)
T0CA0 7125:167.104 - 0.253ms returns 0
T0CA0 7125:169.664 JLINK_WriteReg(XPSR, 0x01000000)
T0CA0 7125:169.664 - 0.592ms returns 0
T0CA0 7125:170.688 JLINK_WriteReg(MSP, 0x20001000)
T0CA0 7125:170.688 - 0.291ms returns 0
T0CA0 7125:171.200 JLINK_WriteReg(PSP, 0x20001000)
T0CA0 7125:171.200 - 0.228ms returns 0
T0CA0 7125:171.200 JLINK_WriteReg(CFBP, 0x00000000)
T0CA0 7125:171.200 - 0.159ms returns 0
T0CA0 7125:171.200 JLINK_SetBPEx(Addr = 0x20000000, Type = 0xFFFFFFF2)
T0CA0 7125:172.224   CPU_ReadMem(2 bytes @ 0x20000000)
T0CA0 7125:173.248 - 1.525ms returns 0x00000001
T0CA0 7125:173.760 JLINK_Go()
T0CA0 7125:173.760   CPU_WriteMem(2 bytes @ 0x20000000)
T0CA0 7125:174.784   CPU_ReadMem(4 bytes @ 0xE0001000)
T0CA0 7125:176.320   CPU_WriteMem(4 bytes @ 0xE0001000)
T0CA0 7125:177.856   CPU_WriteMem(4 bytes @ 0xE0002008)
T0CA0 7125:177.856   CPU_WriteMem(4 bytes @ 0xE000200C)
T0CA0 7125:178.880   CPU_WriteMem(4 bytes @ 0xE0002010)
T0CA0 7125:178.880   CPU_WriteMem(4 bytes @ 0xE0002014)
T0CA0 7125:181.952   CPU_WriteMem(4 bytes @ 0xE0001004)
T0CA0 7125:199.360   Memory map 'after startup completion point' is active
T0CA0 7125:199.360 - 25.843ms 
T0CA0 7125:199.360 JLINK_IsHalted()
T0CA0 7125:211.648   CPU_ReadMem(2 bytes @ 0x20000000)
T0CA0 7125:214.208 - 14.149ms returns TRUE
T0CA0 7125:214.208 JLINK_ReadReg(R15 (PC))
T0CA0 7125:214.208 - 0.173ms returns 0x20000000
T0CA0 7125:214.720 JLINK_ClrBPEx(BPHandle = 0x00000001)
T0CA0 7125:214.720 - 0.166ms returns 0x00
T0CA0 7125:214.720 JLINK_ReadReg(R0)
T0CA0 7125:214.720 - 0.259ms returns 0x00000000
T0CA0 7125:215.744 JLINK_HasError()
T0CA0 7125:215.744 JLINK_WriteReg(R0, 0x08000000)
T0CA0 7125:215.744 - 0.097ms returns 0
T0CA0 7125:215.744 JLINK_WriteReg(R1, 0x00000800)
T0CA0 7125:215.744 - 0.117ms returns 0
T0CA0 7125:215.744 JLINK_WriteReg(R2, 0x000000FF)
T0CA0 7125:215.744 - 0.045ms returns 0
T0CA0 7125:216.256 JLINK_WriteReg(R3, 0x00000000)
T0CA0 7125:216.256 - 0.044ms returns 0
T0CA0 7125:216.256 JLINK_WriteReg(R4, 0x00000000)
T0CA0 7125:216.256 - 0.150ms returns 0
T0CA0 7125:216.256 JLINK_WriteReg(R5, 0x00000000)
T0CA0 7125:216.256 - 0.106ms returns 0
T0CA0 7125:216.256 JLINK_WriteReg(R6, 0x00000000)
T0CA0 7125:216.256 - 0.046ms returns 0
T0CA0 7125:216.256 JLINK_WriteReg(R7, 0x00000000)
T0CA0 7125:216.256 - 0.043ms returns 0
T0CA0 7125:217.280 JLINK_WriteReg(R8, 0x00000000)
T0CA0 7125:217.280 - 0.106ms returns 0
T0CA0 7125:217.280 JLINK_WriteReg(R9, 0x2000016C)
T0CA0 7125:217.280 - 0.046ms returns 0
T0CA0 7125:217.280 JLINK_WriteReg(R10, 0x00000000)
T0CA0 7125:217.280 - 0.043ms returns 0
T0CA0 7125:217.280 JLINK_WriteReg(R11, 0x00000000)
T0CA0 7125:217.280 - 0.041ms returns 0
T0CA0 7125:218.304 JLINK_WriteReg(R12, 0x00000000)
T0CA0 7125:218.304 - 0.202ms returns 0
T0CA0 7125:218.304 JLINK_WriteReg(R13 (SP), 0x20001000)
T0CA0 7125:218.304 - 0.160ms returns 0
T0CA0 7125:218.816 JLINK_WriteReg(R14, 0x20000001)
T0CA0 7125:218.816 - 0.243ms returns 0
T0CA0 7125:218.816 JLINK_WriteReg(R15 (PC), 0x20000020)
T0CA0 7125:218.816 - 0.166ms returns 0
T0CA0 7125:219.840 JLINK_WriteReg(XPSR, 0x01000000)
T0CA0 7125:219.840 - 0.158ms returns 0
T0CA0 7125:219.840 JLINK_WriteReg(MSP, 0x20001000)
T0CA0 7125:219.840 - 0.181ms returns 0
T0CA0 7125:219.840 JLINK_WriteReg(PSP, 0x20001000)
T0CA0 7125:220.352 - 0.196ms returns 0
T0CA0 7125:220.352 JLINK_WriteReg(CFBP, 0x00000000)
T0CA0 7125:220.352 - 0.219ms returns 0
T0CA0 7125:220.352 JLINK_SetBPEx(Addr = 0x20000000, Type = 0xFFFFFFF2)
T0CA0 7125:221.376 - 0.189ms returns 0x00000002
T0CA0 7125:221.376 JLINK_Go()
T0CA0 7125:221.376   CPU_ReadMem(4 bytes @ 0xE0001000)
T0CA0 7125:232.640 - 11.859ms 
T0CA0 7125:235.200 JLINK_IsHalted()
T0CA0 7125:248.512   CPU_ReadMem(2 bytes @ 0x20000000)
T0CA0 7125:250.048 - 14.667ms returns TRUE
T0CA0 7125:250.048 JLINK_ReadReg(R15 (PC))
T0CA0 7125:250.048 - 0.177ms returns 0x20000000
T0CA0 7125:251.072 JLINK_ClrBPEx(BPHandle = 0x00000002)
T0CA0 7125:251.072 - 0.166ms returns 0x00
T0CA0 7125:251.072 JLINK_ReadReg(R0)
T0CA0 7125:251.584 - 0.265ms returns 0x00000001
T0CA0 7125:251.584 JLINK_HasError()
T0CA0 7125:251.584 JLINK_WriteReg(R0, 0x08000000)
T0CA0 7125:251.584 - 0.296ms returns 0
T0CA0 7125:252.608 JLINK_WriteReg(R1, 0x00000800)
T0CA0 7125:252.608 - 0.169ms returns 0
T0CA0 7125:252.608 JLINK_WriteReg(R2, 0x000000FF)
T0CA0 7125:252.608 - 0.228ms returns 0
T0CA0 7125:253.120 JLINK_WriteReg(R3, 0x00000000)
T0CA0 7125:253.120 - 0.168ms returns 0
T0CA0 7125:253.120 JLINK_WriteReg(R4, 0x00000000)
T0CA0 7125:253.120 - 0.187ms returns 0
T0CA0 7125:254.144 JLINK_WriteReg(R5, 0x00000000)
T0CA0 7125:254.144 - 0.225ms returns 0
T0CA0 7125:254.144 JLINK_WriteReg(R6, 0x00000000)
T0CA0 7125:254.144 - 0.167ms returns 0
T0CA0 7125:255.168 JLINK_WriteReg(R7, 0x00000000)
T0CA0 7125:255.168 - 0.272ms returns 0
T0CA0 7125:255.168 JLINK_WriteReg(R8, 0x00000000)
T0CA0 7125:255.168 - 0.051ms returns 0
T0CA0 7125:255.168 JLINK_WriteReg(R9, 0x2000016C)
T0CA0 7125:255.168 - 0.055ms returns 0
T0CA0 7125:255.680 JLINK_WriteReg(R10, 0x00000000)
T0CA0 7125:255.680 - 0.172ms returns 0
T0CA0 7125:255.680 JLINK_WriteReg(R11, 0x00000000)
T0CA0 7125:255.680 - 0.054ms returns 0
T0CA0 7125:255.680 JLINK_WriteReg(R12, 0x00000000)
T0CA0 7125:255.680 - 0.105ms returns 0
T0CA0 7125:255.680 JLINK_WriteReg(R13 (SP), 0x20001000)
T0CA0 7125:255.680 - 0.107ms returns 0
T0CA0 7125:256.704 JLINK_WriteReg(R14, 0x20000001)
T0CA0 7125:256.704 - 0.044ms returns 0
T0CA0 7125:256.704 JLINK_WriteReg(R15 (PC), 0x200000B8)
T0CA0 7125:256.704 - 0.089ms returns 0
T0CA0 7125:256.704 JLINK_WriteReg(XPSR, 0x01000000)
T0CA0 7125:256.704 - 0.112ms returns 0
T0CA0 7125:256.704 JLINK_WriteReg(MSP, 0x20001000)
T0CA0 7125:257.216 - 0.388ms returns 0
T0CA0 7125:257.216 JLINK_WriteReg(PSP, 0x20001000)
T0CA0 7125:257.216 - 0.319ms returns 0
T0CA0 7125:258.240 JLINK_WriteReg(CFBP, 0x00000000)
T0CA0 7125:258.240 - 0.272ms returns 0
T0CA0 7125:258.240 JLINK_SetBPEx(Addr = 0x20000000, Type = 0xFFFFFFF2)
T0CA0 7125:259.264 - 0.203ms returns 0x00000003
T0CA0 7125:259.264 JLINK_Go()
T0CA0 7125:259.776   CPU_ReadMem(4 bytes @ 0xE0001000)
T0CA0 7125:271.552 - 12.496ms 
T0CA0 7125:272.064 JLINK_IsHalted()
T0CA0 7125:273.600 - 1.942ms returns FALSE
T0CA0 7125:274.624 JLINK_HasError()
T0CA0 7125:285.888 JLINK_IsHalted()
T0CA0 7125:287.936 - 1.893ms returns FALSE
T0CA0 7125:289.472 JLINK_HasError()
T0CA0 7125:291.008 JLINK_IsHalted()
T0CA0 7125:292.544 - 1.586ms returns FALSE
T0CA0 7125:293.568 JLINK_HasError()
T0CA0 7125:296.128 JLINK_IsHalted()
T0CA0 7125:308.416   CPU_ReadMem(2 bytes @ 0x20000000)
T0CA0 7125:309.952 - 14.220ms returns TRUE
T0CA0 7125:309.952 JLINK_ReadReg(R15 (PC))
T0CA0 7125:309.952 - 0.169ms returns 0x20000000
T0CA0 7125:310.464 JLINK_ClrBPEx(BPHandle = 0x00000003)
T0CA0 7125:310.464 - 0.216ms returns 0x00
T0CA0 7125:310.464 JLINK_ReadReg(R0)
T0CA0 7125:310.464 - 0.161ms returns 0x00000000
T0CA0 7125:313.024 JLINK_HasError()
T0CA0 7125:313.024 JLINK_WriteReg(R0, 0x08000800)
T0CA0 7125:313.024 - 0.055ms returns 0
T0CA0 7125:313.024 JLINK_WriteReg(R1, 0x00000800)
T0CA0 7125:313.024 - 0.316ms returns 0
T0CA0 7125:314.048 JLINK_WriteReg(R2, 0x000000FF)
T0CA0 7125:314.048 - 0.200ms returns 0
T0CA0 7125:314.048 JLINK_WriteReg(R3, 0x00000000)
T0CA0 7125:314.048 - 0.185ms returns 0
T0CA0 7125:314.048 JLINK_WriteReg(R4, 0x00000000)
T0CA0 7125:314.560 - 0.065ms returns 0
T0CA0 7125:314.560 JLINK_WriteReg(R5, 0x00000000)
T0CA0 7125:314.560 - 0.323ms returns 0
T0CA0 7125:315.584 JLINK_WriteReg(R6, 0x00000000)
T0CA0 7125:315.584 - 0.221ms returns 0
T0CA0 7125:316.608 JLINK_WriteReg(R7, 0x00000000)
T0CA0 7125:316.608 - 0.279ms returns 0
T0CA0 7125:316.608 JLINK_WriteReg(R8, 0x00000000)
T0CA0 7125:317.120 - 0.358ms returns 0
T0CA0 7125:317.120 JLINK_WriteReg(R9, 0x2000016C)
T0CA0 7125:317.120 - 0.196ms returns 0
T0CA0 7125:318.144 JLINK_WriteReg(R10, 0x00000000)
T0CA0 7125:318.144 - 0.170ms returns 0
T0CA0 7125:318.144 JLINK_WriteReg(R11, 0x00000000)
T0CA0 7125:318.144 - 0.162ms returns 0
T0CA0 7125:318.656 JLINK_WriteReg(R12, 0x00000000)
T0CA0 7125:318.656 - 0.247ms returns 0
T0CA0 7125:318.656 JLINK_WriteReg(R13 (SP), 0x20001000)
T0CA0 7125:319.680 - 0.355ms returns 0
T0CA0 7125:319.680 JLINK_WriteReg(R14, 0x20000001)
T0CA0 7125:319.680 - 0.118ms returns 0
T0CA0 7125:319.680 JLINK_WriteReg(R15 (PC), 0x20000020)
T0CA0 7125:319.680 - 0.288ms returns 0
T0CA0 7125:319.680 JLINK_WriteReg(XPSR, 0x01000000)
T0CA0 7125:320.704 - 0.109ms returns 0
T0CA0 7125:320.704 JLINK_WriteReg(MSP, 0x20001000)
T0CA0 7125:320.704 - 0.052ms returns 0
T0CA0 7125:320.704 JLINK_WriteReg(PSP, 0x20001000)
T0CA0 7125:320.704 - 0.235ms returns 0
T0CA0 7125:320.704 JLINK_WriteReg(CFBP, 0x00000000)
T0CA0 7125:321.216 - 0.114ms returns 0
T0CA0 7125:321.216 JLINK_SetBPEx(Addr = 0x20000000, Type = 0xFFFFFFF2)
T0CA0 7125:321.216 - 0.255ms returns 0x00000004
T0CA0 7125:321.216 JLINK_Go()
T0CA0 7125:321.216   CPU_ReadMem(4 bytes @ 0xE0001000)
T0CA0 7125:334.528 - 12.726ms 
T0CA0 7125:334.528 JLINK_IsHalted()
T0CA0 7125:346.816   CPU_ReadMem(2 bytes @ 0x20000000)
T0CA0 7125:347.328 - 12.966ms returns TRUE
T0CA0 7125:347.328 JLINK_ReadReg(R15 (PC))
T0CA0 7125:348.352 - 0.119ms returns 0x20000000
T0CA0 7125:348.352 JLINK_ClrBPEx(BPHandle = 0x00000004)
T0CA0 7125:348.352 - 0.166ms returns 0x00
T0CA0 7125:348.352 JLINK_ReadReg(R0)
T0CA0 7125:348.352 - 0.251ms returns 0x00000001
T0CA0 7125:348.352 JLINK_HasError()
T0CA0 7125:349.376 JLINK_WriteReg(R0, 0x08000800)
T0CA0 7125:349.376 - 0.109ms returns 0
T0CA0 7125:349.376 JLINK_WriteReg(R1, 0x00000800)
T0CA0 7125:349.376 - 0.049ms returns 0
T0CA0 7125:349.376 JLINK_WriteReg(R2, 0x000000FF)
T0CA0 7125:349.376 - 0.167ms returns 0
T0CA0 7125:349.888 JLINK_WriteReg(R3, 0x00000000)
T0CA0 7125:349.888 - 0.056ms returns 0
T0CA0 7125:349.888 JLINK_WriteReg(R4, 0x00000000)
T0CA0 7125:349.888 - 0.048ms returns 0
T0CA0 7125:349.888 JLINK_WriteReg(R5, 0x00000000)
T0CA0 7125:349.888 - 0.171ms returns 0
T0CA0 7125:350.912 JLINK_WriteReg(R6, 0x00000000)
T0CA0 7125:350.912 - 0.334ms returns 0
T0CA0 7125:350.912 JLINK_WriteReg(R7, 0x00000000)
T0CA0 7125:350.912 - 0.117ms returns 0
T0CA0 7125:350.912 JLINK_WriteReg(R8, 0x00000000)
T0CA0 7125:350.912 - 0.095ms returns 0
T0CA0 7125:351.424 JLINK_WriteReg(R9, 0x2000016C)
T0CA0 7125:351.424 - 0.041ms returns 0
T0CA0 7125:351.424 JLINK_WriteReg(R10, 0x00000000)
T0CA0 7125:351.424 - 0.110ms returns 0
T0CA0 7125:351.424 JLINK_WriteReg(R11, 0x00000000)
T0CA0 7125:351.424 - 0.046ms returns 0
T0CA0 7125:351.424 JLINK_WriteReg(R12, 0x00000000)
T0CA0 7125:351.424 - 0.111ms returns 0
T0CA0 7125:351.424 JLINK_WriteReg(R13 (SP), 0x20001000)
T0CA0 7125:352.448 - 0.043ms returns 0
T0CA0 7125:352.448 JLINK_WriteReg(R14, 0x20000001)
T0CA0 7125:352.448 - 0.157ms returns 0
T0CA0 7125:352.448 JLINK_WriteReg(R15 (PC), 0x200000B8)
T0CA0 7125:352.448 - 0.053ms returns 0
T0CA0 7125:352.448 JLINK_WriteReg(XPSR, 0x01000000)
T0CA0 7125:352.448 - 0.182ms returns 0
T0CA0 7125:353.472 JLINK_WriteReg(MSP, 0x20001000)
T0CA0 7125:353.472 - 0.108ms returns 0
T0CA0 7125:353.472 JLINK_WriteReg(PSP, 0x20001000)
T0CA0 7125:353.472 - 0.096ms returns 0
T0CA0 7125:353.472 JLINK_WriteReg(CFBP, 0x00000000)
T0CA0 7125:353.472 - 0.106ms returns 0
T0CA0 7125:353.472 JLINK_SetBPEx(Addr = 0x20000000, Type = 0xFFFFFFF2)
T0CA0 7125:353.472 - 0.117ms returns 0x00000005
T0CA0 7125:353.472 JLINK_Go()
T0CA0 7125:353.984   CPU_ReadMem(4 bytes @ 0xE0001000)
T0CA0 7125:365.760 - 11.855ms 
T0CA0 7125:365.760 JLINK_IsHalted()
T0CA0 7125:367.296 - 1.438ms returns FALSE
T0CA0 7125:367.296 JLINK_HasError()
T0CA0 7125:371.392 JLINK_IsHalted()
T0CA0 7125:372.928 - 2.023ms returns FALSE
T0CA0 7125:373.952 JLINK_HasError()
T0CA0 7125:375.488 JLINK_IsHalted()
T0CA0 7125:377.024 - 1.474ms returns FALSE
T0CA0 7125:377.024 JLINK_HasError()
T0CA0 7125:380.096 JLINK_IsHalted()
T0CA0 7125:382.144 - 1.771ms returns FALSE
T0CA0 7125:382.144 JLINK_HasError()
T0CA0 7125:384.192 JLINK_IsHalted()
T0CA0 7125:386.240 - 1.964ms returns FALSE
T0CA0 7125:386.752 JLINK_HasError()
T0CA0 7125:388.288 JLINK_IsHalted()
T0CA0 7125:401.600   CPU_ReadMem(2 bytes @ 0x20000000)
T0CA0 7125:403.136 - 14.558ms returns TRUE
T0CA0 7125:403.136 JLINK_ReadReg(R15 (PC))
T0CA0 7125:403.136 - 0.129ms returns 0x20000000
T0CA0 7125:403.136 JLINK_ClrBPEx(BPHandle = 0x00000005)
T0CA0 7125:403.136 - 0.087ms returns 0x00
T0CA0 7125:403.136 JLINK_ReadReg(R0)
T0CA0 7125:403.136 - 0.108ms returns 0x00000000
T0CA0 7125:404.160 JLINK_HasError()
T0CA0 7125:404.672 JLINK_WriteReg(R0, 0x08001000)
T0CA0 7125:404.672 - 0.050ms returns 0
T0CA0 7125:404.672 JLINK_WriteReg(R1, 0x00000800)
T0CA0 7125:404.672 - 0.045ms returns 0
T0CA0 7125:404.672 JLINK_WriteReg(R2, 0x000000FF)
T0CA0 7125:404.672 - 0.095ms returns 0
T0CA0 7125:404.672 JLINK_WriteReg(R3, 0x00000000)
T0CA0 7125:404.672 - 0.046ms returns 0
T0CA0 7125:404.672 JLINK_WriteReg(R4, 0x00000000)
T0CA0 7125:404.672 - 0.113ms returns 0
T0CA0 7125:405.696 JLINK_WriteReg(R5, 0x00000000)
T0CA0 7125:405.696 - 0.108ms returns 0
T0CA0 7125:405.696 JLINK_WriteReg(R6, 0x00000000)
T0CA0 7125:405.696 - 0.104ms returns 0
T0CA0 7125:405.696 JLINK_WriteReg(R7, 0x00000000)
T0CA0 7125:405.696 - 0.162ms returns 0
T0CA0 7125:405.696 JLINK_WriteReg(R8, 0x00000000)
T0CA0 7125:405.696 - 0.106ms returns 0
T0CA0 7125:405.696 JLINK_WriteReg(R9, 0x2000016C)
T0CA0 7125:406.720 - 0.044ms returns 0
T0CA0 7125:406.720 JLINK_WriteReg(R10, 0x00000000)
T0CA0 7125:406.720 - 0.057ms returns 0
T0CA0 7125:406.720 JLINK_WriteReg(R11, 0x00000000)
T0CA0 7125:406.720 - 0.219ms returns 0
T0CA0 7125:407.232 JLINK_WriteReg(R12, 0x00000000)
T0CA0 7125:407.232 - 0.274ms returns 0
T0CA0 7125:407.232 JLINK_WriteReg(R13 (SP), 0x20001000)
T0CA0 7125:408.256 - 0.161ms returns 0
T0CA0 7125:408.256 JLINK_WriteReg(R14, 0x20000001)
T0CA0 7125:408.256 - 0.225ms returns 0
T0CA0 7125:408.256 JLINK_WriteReg(R15 (PC), 0x20000020)
T0CA0 7125:408.256 - 0.045ms returns 0
T0CA0 7125:408.256 JLINK_WriteReg(XPSR, 0x01000000)
T0CA0 7125:408.768 - 0.106ms returns 0
T0CA0 7125:408.768 JLINK_WriteReg(MSP, 0x20001000)
T0CA0 7125:408.768 - 0.045ms returns 0
T0CA0 7125:408.768 JLINK_WriteReg(PSP, 0x20001000)
T0CA0 7125:408.768 - 0.043ms returns 0
T0CA0 7125:408.768 JLINK_WriteReg(CFBP, 0x00000000)
T0CA0 7125:408.768 - 0.150ms returns 0
T0CA0 7125:408.768 JLINK_SetBPEx(Addr = 0x20000000, Type = 0xFFFFFFF2)
T0CA0 7125:409.792 - 0.054ms returns 0x00000006
T0CA0 7125:409.792 JLINK_Go()
T0CA0 7125:409.792   CPU_ReadMem(4 bytes @ 0xE0001000)
T0CA0 7125:422.080 - 12.429ms 
T0CA0 7125:422.080 JLINK_IsHalted()
T0CA0 7125:434.368   CPU_ReadMem(2 bytes @ 0x20000000)
T0CA0 7125:435.904 - 13.932ms returns TRUE
T0CA0 7125:436.928 JLINK_ReadReg(R15 (PC))
T0CA0 7125:436.928 - 0.120ms returns 0x20000000
T0CA0 7125:436.928 JLINK_ClrBPEx(BPHandle = 0x00000006)
T0CA0 7125:436.928 - 0.108ms returns 0x00
T0CA0 7125:436.928 JLINK_ReadReg(R0)
T0CA0 7125:437.440 - 0.339ms returns 0x00000001
T0CA0 7125:437.440 JLINK_HasError()
T0CA0 7125:437.440 JLINK_WriteReg(R0, 0x08001000)
T0CA0 7125:437.440 - 0.172ms returns 0
T0CA0 7125:438.464 JLINK_WriteReg(R1, 0x00000800)
T0CA0 7125:438.464 - 0.260ms returns 0
T0CA0 7125:438.464 JLINK_WriteReg(R2, 0x000000FF)
T0CA0 7125:439.488 - 0.179ms returns 0
T0CA0 7125:439.488 JLINK_WriteReg(R3, 0x00000000)
T0CA0 7125:439.488 - 0.291ms returns 0
T0CA0 7125:439.488 JLINK_WriteReg(R4, 0x00000000)
T0CA0 7125:439.488 - 0.047ms returns 0
T0CA0 7125:440.000 JLINK_WriteReg(R5, 0x00000000)
T0CA0 7125:440.000 - 0.118ms returns 0
T0CA0 7125:440.000 JLINK_WriteReg(R6, 0x00000000)
T0CA0 7125:440.000 - 0.045ms returns 0
T0CA0 7125:440.000 JLINK_WriteReg(R7, 0x00000000)
T0CA0 7125:440.000 - 0.080ms returns 0
T0CA0 7125:440.000 JLINK_WriteReg(R8, 0x00000000)
T0CA0 7125:441.024 - 0.245ms returns 0
T0CA0 7125:441.024 JLINK_WriteReg(R9, 0x2000016C)
T0CA0 7125:441.024 - 0.247ms returns 0
T0CA0 7125:441.024 JLINK_WriteReg(R10, 0x00000000)
T0CA0 7125:441.024 - 0.045ms returns 0
T0CA0 7125:441.024 JLINK_WriteReg(R11, 0x00000000)
T0CA0 7125:441.024 - 0.040ms returns 0
T0CA0 7125:441.024 JLINK_WriteReg(R12, 0x00000000)
T0CA0 7125:441.536 - 0.183ms returns 0
T0CA0 7125:441.536 JLINK_WriteReg(R13 (SP), 0x20001000)
T0CA0 7125:442.560 - 0.396ms returns 0
T0CA0 7125:442.560 JLINK_WriteReg(R14, 0x20000001)
T0CA0 7125:443.584 - 0.251ms returns 0
T0CA0 7125:443.584 JLINK_WriteReg(R15 (PC), 0x200000B8)
T0CA0 7125:443.584 - 0.118ms returns 0
T0CA0 7125:443.584 JLINK_WriteReg(XPSR, 0x01000000)
T0CA0 7125:443.584 - 0.104ms returns 0
T0CA0 7125:443.584 JLINK_WriteReg(MSP, 0x20001000)
T0CA0 7125:444.096 - 0.050ms returns 0
T0CA0 7125:444.096 JLINK_WriteReg(PSP, 0x20001000)
T0CA0 7125:444.096 - 0.105ms returns 0
T0CA0 7125:444.096 JLINK_WriteReg(CFBP, 0x00000000)
T0CA0 7125:444.096 - 0.047ms returns 0
T0CA0 7125:444.096 JLINK_SetBPEx(Addr = 0x20000000, Type = 0xFFFFFFF2)
T0CA0 7125:445.120 - 0.135ms returns 0x00000007
T0CA0 7125:445.120 JLINK_Go()
T0CA0 7125:445.120   CPU_ReadMem(4 bytes @ 0xE0001000)
T0CA0 7125:456.384 - 11.829ms 
T0CA0 7125:457.408 JLINK_IsHalted()
T0CA0 7125:457.920 - 1.227ms returns FALSE
T0CA0 7125:458.944 JLINK_HasError()
T0CA0 7125:464.064 JLINK_IsHalted()
T0CA0 7125:465.600 - 1.896ms returns FALSE
T0CA0 7125:466.112 JLINK_HasError()
T0CA0 7125:468.160 JLINK_IsHalted()
T0CA0 7125:469.696 - 1.732ms returns FALSE
T0CA0 7125:469.696 JLINK_HasError()
T0CA0 7125:471.232 JLINK_IsHalted()
T0CA0 7125:472.768 - 1.494ms returns FALSE
T0CA0 7125:473.792 JLINK_HasError()
T0CA0 7125:476.352 JLINK_IsHalted()
T0CA0 7125:477.888 - 1.441ms returns FALSE
T0CA0 7125:477.888 JLINK_HasError()
T0CA0 7125:480.448 JLINK_IsHalted()
T0CA0 7125:493.248   CPU_ReadMem(2 bytes @ 0x20000000)
T0CA0 7125:494.784 - 14.732ms returns TRUE
T0CA0 7125:494.784 JLINK_ReadReg(R15 (PC))
T0CA0 7125:495.808 - 0.110ms returns 0x20000000
T0CA0 7125:495.808 JLINK_ClrBPEx(BPHandle = 0x00000007)
T0CA0 7125:495.808 - 0.089ms returns 0x00
T0CA0 7125:495.808 JLINK_ReadReg(R0)
T0CA0 7125:495.808 - 0.090ms returns 0x00000000
T0CA0 7125:496.832 JLINK_HasError()
T0CA0 7125:496.832 JLINK_WriteReg(R0, 0x08001800)
T0CA0 7125:496.832 - 0.177ms returns 0
T0CA0 7125:496.832 JLINK_WriteReg(R1, 0x00000800)
T0CA0 7125:496.832 - 0.042ms returns 0
T0CA0 7125:496.832 JLINK_WriteReg(R2, 0x000000FF)
T0CA0 7125:496.832 - 0.105ms returns 0
T0CA0 7125:497.344 JLINK_WriteReg(R3, 0x00000000)
T0CA0 7125:497.344 - 0.045ms returns 0
T0CA0 7125:497.344 JLINK_WriteReg(R4, 0x00000000)
T0CA0 7125:497.344 - 0.105ms returns 0
T0CA0 7125:497.344 JLINK_WriteReg(R5, 0x00000000)
T0CA0 7125:497.344 - 0.257ms returns 0
T0CA0 7125:498.368 JLINK_WriteReg(R6, 0x00000000)
T0CA0 7125:498.368 - 0.051ms returns 0
T0CA0 7125:498.368 JLINK_WriteReg(R7, 0x00000000)
T0CA0 7125:498.368 - 0.044ms returns 0
T0CA0 7125:498.368 JLINK_WriteReg(R8, 0x00000000)
T0CA0 7125:498.368 - 0.119ms returns 0
T0CA0 7125:498.368 JLINK_WriteReg(R9, 0x2000016C)
T0CA0 7125:498.368 - 0.107ms returns 0
T0CA0 7125:498.880 JLINK_WriteReg(R10, 0x00000000)
T0CA0 7125:498.880 - 0.107ms returns 0
T0CA0 7125:498.880 JLINK_WriteReg(R11, 0x00000000)
T0CA0 7125:498.880 - 0.042ms returns 0
T0CA0 7125:498.880 JLINK_WriteReg(R12, 0x00000000)
T0CA0 7125:498.880 - 0.106ms returns 0
T0CA0 7125:498.880 JLINK_WriteReg(R13 (SP), 0x20001000)
T0CA0 7125:498.880 - 0.044ms returns 0
T0CA0 7125:499.904 JLINK_WriteReg(R14, 0x20000001)
T0CA0 7125:499.904 - 0.096ms returns 0
T0CA0 7125:499.904 JLINK_WriteReg(R15 (PC), 0x20000020)
T0CA0 7125:499.904 - 0.105ms returns 0
T0CA0 7125:499.904 JLINK_WriteReg(XPSR, 0x01000000)
T0CA0 7125:499.904 - 0.041ms returns 0
T0CA0 7125:499.904 JLINK_WriteReg(MSP, 0x20001000)
T0CA0 7125:499.904 - 0.106ms returns 0
T0CA0 7125:500.928 JLINK_WriteReg(PSP, 0x20001000)
T0CA0 7125:500.928 - 0.271ms returns 0
T0CA0 7125:500.928 JLINK_WriteReg(CFBP, 0x00000000)
T0CA0 7125:500.928 - 0.049ms returns 0
T0CA0 7125:501.440 JLINK_SetBPEx(Addr = 0x20000000, Type = 0xFFFFFFF2)
T0CA0 7125:501.440 - 0.111ms returns 0x00000008
T0CA0 7125:501.440 JLINK_Go()
T0CA0 7125:501.440   CPU_ReadMem(4 bytes @ 0xE0001000)
T0CA0 7125:513.216 - 11.965ms 
T0CA0 7125:513.728 JLINK_IsHalted()
T0CA0 7125:525.504   CPU_ReadMem(2 bytes @ 0x20000000)
T0CA0 7125:527.040 - 13.391ms returns TRUE
T0CA0 7125:527.552 JLINK_ReadReg(R15 (PC))
T0CA0 7125:527.552 - 0.258ms returns 0x20000000
T0CA0 7125:527.552 JLINK_ClrBPEx(BPHandle = 0x00000008)
T0CA0 7125:527.552 - 0.302ms returns 0x00
T0CA0 7125:528.576 JLINK_ReadReg(R0)
T0CA0 7125:528.576 - 0.175ms returns 0x00000001
T0CA0 7125:528.576 JLINK_HasError()
T0CA0 7125:529.600 JLINK_WriteReg(R0, 0x08001800)
T0CA0 7125:529.600 - 0.216ms returns 0
T0CA0 7125:529.600 JLINK_WriteReg(R1, 0x00000800)
T0CA0 7125:529.600 - 0.252ms returns 0
T0CA0 7125:529.600 JLINK_WriteReg(R2, 0x000000FF)
T0CA0 7125:530.112 - 0.236ms returns 0
T0CA0 7125:530.112 JLINK_WriteReg(R3, 0x00000000)
T0CA0 7125:530.112 - 0.175ms returns 0
T0CA0 7125:531.136 JLINK_WriteReg(R4, 0x00000000)
T0CA0 7125:531.136 - 0.318ms returns 0
T0CA0 7125:531.136 JLINK_WriteReg(R5, 0x00000000)
T0CA0 7125:531.136 - 0.112ms returns 0
T0CA0 7125:531.648 JLINK_WriteReg(R6, 0x00000000)
T0CA0 7125:531.648 - 0.295ms returns 0
T0CA0 7125:531.648 JLINK_WriteReg(R7, 0x00000000)
T0CA0 7125:531.648 - 0.191ms returns 0
T0CA0 7125:532.672 JLINK_WriteReg(R8, 0x00000000)
T0CA0 7125:532.672 - 0.381ms returns 0
T0CA0 7125:533.696 JLINK_WriteReg(R9, 0x2000016C)
T0CA0 7125:533.696 - 0.206ms returns 0
T0CA0 7125:533.696 JLINK_WriteReg(R10, 0x00000000)
T0CA0 7125:534.208 - 0.248ms returns 0
T0CA0 7125:534.208 JLINK_WriteReg(R11, 0x00000000)
T0CA0 7125:534.208 - 0.214ms returns 0
T0CA0 7125:534.208 JLINK_WriteReg(R12, 0x00000000)
T0CA0 7125:535.232 - 0.222ms returns 0
T0CA0 7125:535.232 JLINK_WriteReg(R13 (SP), 0x20001000)
T0CA0 7125:535.232 - 0.354ms returns 0
T0CA0 7125:535.744 JLINK_WriteReg(R14, 0x20000001)
T0CA0 7125:535.744 - 0.241ms returns 0
T0CA0 7125:535.744 JLINK_WriteReg(R15 (PC), 0x200000B8)
T0CA0 7125:535.744 - 0.110ms returns 0
T0CA0 7125:535.744 JLINK_WriteReg(XPSR, 0x01000000)
T0CA0 7125:536.768 - 0.282ms returns 0
T0CA0 7125:536.768 JLINK_WriteReg(MSP, 0x20001000)
T0CA0 7125:536.768 - 0.046ms returns 0
T0CA0 7125:536.768 JLINK_WriteReg(PSP, 0x20001000)
T0CA0 7125:536.768 - 0.188ms returns 0
T0CA0 7125:536.768 JLINK_WriteReg(CFBP, 0x00000000)
T0CA0 7125:536.768 - 0.045ms returns 0
T0CA0 7125:536.768 JLINK_SetBPEx(Addr = 0x20000000, Type = 0xFFFFFFF2)
T0CA0 7125:537.792 - 0.089ms returns 0x00000009
T0CA0 7125:537.792 JLINK_Go()
T0CA0 7125:537.792   CPU_ReadMem(4 bytes @ 0xE0001000)
T0CA0 7125:550.080 - 12.273ms 
T0CA0 7125:550.080 JLINK_IsHalted()
T0CA0 7125:551.616 - 1.694ms returns FALSE
T0CA0 7125:551.616 JLINK_HasError()
T0CA0 7125:554.688 JLINK_IsHalted()
T0CA0 7125:556.224 - 1.967ms returns FALSE
T0CA0 7125:556.224 JLINK_HasError()
T0CA0 7125:559.808 JLINK_IsHalted()
T0CA0 7125:561.344 - 1.928ms returns FALSE
T0CA0 7125:561.344 JLINK_HasError()
T0CA0 7125:564.416 JLINK_IsHalted()
T0CA0 7125:566.464 - 1.667ms returns FALSE
T0CA0 7125:566.464 JLINK_HasError()
T0CA0 7125:569.536 JLINK_IsHalted()
T0CA0 7125:570.560 - 1.481ms returns FALSE
T0CA0 7125:571.072 JLINK_HasError()
T0CA0 7125:572.608 JLINK_IsHalted()
T0CA0 7125:584.896   CPU_ReadMem(2 bytes @ 0x20000000)
T0CA0 7125:586.944 - 13.436ms returns TRUE
T0CA0 7125:586.944 JLINK_ReadReg(R15 (PC))
T0CA0 7125:586.944 - 0.181ms returns 0x20000000
T0CA0 7125:587.456 JLINK_ClrBPEx(BPHandle = 0x00000009)
T0CA0 7125:587.456 - 0.234ms returns 0x00
T0CA0 7125:587.456 JLINK_ReadReg(R0)
T0CA0 7125:587.456 - 0.163ms returns 0x00000000
T0CA0 7125:588.480 JLINK_HasError()
T0CA0 7125:588.480 JLINK_WriteReg(R0, 0x08002000)
T0CA0 7125:588.992 - 0.324ms returns 0
T0CA0 7125:588.992 JLINK_WriteReg(R1, 0x00000800)
T0CA0 7125:588.992 - 0.130ms returns 0
T0CA0 7125:588.992 JLINK_WriteReg(R2, 0x000000FF)
T0CA0 7125:590.016 - 0.138ms returns 0
T0CA0 7125:590.016 JLINK_WriteReg(R3, 0x00000000)
T0CA0 7125:590.016 - 0.111ms returns 0
T0CA0 7125:590.016 JLINK_WriteReg(R4, 0x00000000)
T0CA0 7125:590.016 - 0.046ms returns 0
T0CA0 7125:590.016 JLINK_WriteReg(R5, 0x00000000)
T0CA0 7125:590.016 - 0.108ms returns 0
T0CA0 7125:591.040 JLINK_WriteReg(R6, 0x00000000)
T0CA0 7125:591.040 - 0.044ms returns 0
T0CA0 7125:591.040 JLINK_WriteReg(R7, 0x00000000)
T0CA0 7125:591.040 - 0.090ms returns 0
T0CA0 7125:591.040 JLINK_WriteReg(R8, 0x00000000)
T0CA0 7125:591.040 - 0.040ms returns 0
T0CA0 7125:591.040 JLINK_WriteReg(R9, 0x2000016C)
T0CA0 7125:591.040 - 0.041ms returns 0
T0CA0 7125:591.040 JLINK_WriteReg(R10, 0x00000000)
T0CA0 7125:591.040 - 0.092ms returns 0
T0CA0 7125:591.040 JLINK_WriteReg(R11, 0x00000000)
T0CA0 7125:591.040 - 0.109ms returns 0
T0CA0 7125:591.552 JLINK_WriteReg(R12, 0x00000000)
T0CA0 7125:591.552 - 0.357ms returns 0
T0CA0 7125:591.552 JLINK_WriteReg(R13 (SP), 0x20001000)
T0CA0 7125:592.576 - 0.043ms returns 0
T0CA0 7125:592.576 JLINK_WriteReg(R14, 0x20000001)
T0CA0 7125:592.576 - 0.124ms returns 0
T0CA0 7125:592.576 JLINK_WriteReg(R15 (PC), 0x20000020)
T0CA0 7125:592.576 - 0.461ms returns 0
T0CA0 7125:593.088 JLINK_WriteReg(XPSR, 0x01000000)
T0CA0 7125:593.088 - 0.093ms returns 0
T0CA0 7125:593.088 JLINK_WriteReg(MSP, 0x20001000)
T0CA0 7125:593.088 - 0.091ms returns 0
T0CA0 7125:593.088 JLINK_WriteReg(PSP, 0x20001000)
T0CA0 7125:593.088 - 0.270ms returns 0
T0CA0 7125:593.088 JLINK_WriteReg(CFBP, 0x00000000)
T0CA0 7125:594.112 - 0.267ms returns 0
T0CA0 7125:594.112 JLINK_SetBPEx(Addr = 0x20000000, Type = 0xFFFFFFF2)
T0CA0 7125:594.112 - 0.283ms returns 0x0000000A
T0CA0 7125:595.136 JLINK_Go()
T0CA0 7125:595.136   CPU_ReadMem(4 bytes @ 0xE0001000)
T0CA0 7125:606.400 - 12.144ms 
T0CA0 7125:607.424 JLINK_IsHalted()
T0CA0 7125:618.688   CPU_ReadMem(2 bytes @ 0x20000000)
T0CA0 7125:620.224 - 13.148ms returns TRUE
T0CA0 7125:620.224 JLINK_ReadReg(R15 (PC))
T0CA0 7125:621.248 - 0.365ms returns 0x20000000
T0CA0 7125:621.248 JLINK_ClrBPEx(BPHandle = 0x0000000A)
T0CA0 7125:621.248 - 0.172ms returns 0x00
T0CA0 7125:621.760 JLINK_ReadReg(R0)
T0CA0 7125:621.760 - 0.252ms returns 0x00000001
T0CA0 7125:621.760 JLINK_HasError()
T0CA0 7125:621.760 JLINK_WriteReg(R0, 0x08002000)
T0CA0 7125:622.784 - 0.183ms returns 0
T0CA0 7125:622.784 JLINK_WriteReg(R1, 0x00000800)
T0CA0 7125:622.784 - 0.166ms returns 0
T0CA0 7125:622.784 JLINK_WriteReg(R2, 0x000000FF)
T0CA0 7125:623.808 - 0.162ms returns 0
T0CA0 7125:623.808 JLINK_WriteReg(R3, 0x00000000)
T0CA0 7125:623.808 - 0.191ms returns 0
T0CA0 7125:623.808 JLINK_WriteReg(R4, 0x00000000)
T0CA0 7125:624.320 - 0.182ms returns 0
T0CA0 7125:624.320 JLINK_WriteReg(R5, 0x00000000)
T0CA0 7125:624.320 - 0.163ms returns 0
T0CA0 7125:624.320 JLINK_WriteReg(R6, 0x00000000)
T0CA0 7125:625.344 - 0.265ms returns 0
T0CA0 7125:625.344 JLINK_WriteReg(R7, 0x00000000)
T0CA0 7125:625.344 - 0.390ms returns 0
T0CA0 7125:625.344 JLINK_WriteReg(R8, 0x00000000)
T0CA0 7125:625.856 - 0.222ms returns 0
T0CA0 7125:625.856 JLINK_WriteReg(R9, 0x2000016C)
T0CA0 7125:625.856 - 0.124ms returns 0
T0CA0 7125:625.856 JLINK_WriteReg(R10, 0x00000000)
T0CA0 7125:625.856 - 0.112ms returns 0
T0CA0 7125:626.880 JLINK_WriteReg(R11, 0x00000000)
T0CA0 7125:626.880 - 0.203ms returns 0
T0CA0 7125:626.880 JLINK_WriteReg(R12, 0x00000000)
T0CA0 7125:626.880 - 0.165ms returns 0
T0CA0 7125:627.904 JLINK_WriteReg(R13 (SP), 0x20001000)
T0CA0 7125:627.904 - 0.330ms returns 0
T0CA0 7125:627.904 JLINK_WriteReg(R14, 0x20000001)
T0CA0 7125:627.904 - 0.046ms returns 0
T0CA0 7125:627.904 JLINK_WriteReg(R15 (PC), 0x200000B8)
T0CA0 7125:628.416 - 0.089ms returns 0
T0CA0 7125:628.416 JLINK_WriteReg(XPSR, 0x01000000)
T0CA0 7125:628.416 - 0.045ms returns 0
T0CA0 7125:628.416 JLINK_WriteReg(MSP, 0x20001000)
T0CA0 7125:628.416 - 0.120ms returns 0
T0CA0 7125:628.416 JLINK_WriteReg(PSP, 0x20001000)
T0CA0 7125:628.416 - 0.269ms returns 0
T0CA0 7125:628.416 JLINK_WriteReg(CFBP, 0x00000000)
T0CA0 7125:628.416 - 0.046ms returns 0
T0CA0 7125:629.440 JLINK_SetBPEx(Addr = 0x20000000, Type = 0xFFFFFFF2)
T0CA0 7125:629.440 - 0.107ms returns 0x0000000B
T0CA0 7125:629.440 JLINK_Go()
T0CA0 7125:629.440   CPU_ReadMem(4 bytes @ 0xE0001000)
T0CA0 7125:641.728 - 12.019ms 
T0CA0 7125:641.728 JLINK_IsHalted()
T0CA0 7125:643.264 - 1.757ms returns FALSE
T0CA0 7125:644.288 JLINK_HasError()
T0CA0 7125:647.360 JLINK_IsHalted()
T0CA0 7125:648.896 - 1.860ms returns FALSE
T0CA0 7125:649.920 JLINK_HasError()
T0CA0 7125:652.480 JLINK_IsHalted()
T0CA0 7125:654.016 - 1.693ms returns FALSE
T0CA0 7125:654.016 JLINK_HasError()
T0CA0 7125:657.088 JLINK_IsHalted()
T0CA0 7125:658.624 - 1.931ms returns FALSE
T0CA0 7125:658.624 JLINK_HasError()
T0CA0 7125:662.208 JLINK_IsHalted()
T0CA0 7125:673.472   CPU_ReadMem(2 bytes @ 0x20000000)
T0CA0 7125:675.008 - 13.676ms returns TRUE
T0CA0 7125:676.032 JLINK_ReadReg(R15 (PC))
T0CA0 7125:676.032 - 0.205ms returns 0x20000000
T0CA0 7125:676.032 JLINK_ClrBPEx(BPHandle = 0x0000000B)
T0CA0 7125:677.056 - 0.234ms returns 0x00
T0CA0 7125:677.056 JLINK_ReadReg(R0)
T0CA0 7125:677.056 - 0.292ms returns 0x00000000
T0CA0 7125:677.568 JLINK_HasError()
T0CA0 7125:678.592 JLINK_WriteReg(R0, 0x08002800)
T0CA0 7125:678.592 - 0.046ms returns 0
T0CA0 7125:678.592 JLINK_WriteReg(R1, 0x00000800)
T0CA0 7125:678.592 - 0.108ms returns 0
T0CA0 7125:678.592 JLINK_WriteReg(R2, 0x000000FF)
T0CA0 7125:678.592 - 0.245ms returns 0
T0CA0 7125:679.104 JLINK_WriteReg(R3, 0x00000000)
T0CA0 7125:679.104 - 0.118ms returns 0
T0CA0 7125:679.104 JLINK_WriteReg(R4, 0x00000000)
T0CA0 7125:679.104 - 0.109ms returns 0
T0CA0 7125:679.104 JLINK_WriteReg(R5, 0x00000000)
T0CA0 7125:679.104 - 0.047ms returns 0
T0CA0 7125:679.104 JLINK_WriteReg(R6, 0x00000000)
T0CA0 7125:679.104 - 0.113ms returns 0
T0CA0 7125:679.104 JLINK_WriteReg(R7, 0x00000000)
T0CA0 7125:680.128 - 0.106ms returns 0
T0CA0 7125:680.128 JLINK_WriteReg(R8, 0x00000000)
T0CA0 7125:680.128 - 0.071ms returns 0
T0CA0 7125:680.128 JLINK_WriteReg(R9, 0x2000016C)
T0CA0 7125:680.128 - 0.047ms returns 0
T0CA0 7125:680.128 JLINK_WriteReg(R10, 0x00000000)
T0CA0 7125:680.128 - 0.086ms returns 0
T0CA0 7125:680.128 JLINK_WriteReg(R11, 0x00000000)
T0CA0 7125:680.128 - 0.042ms returns 0
T0CA0 7125:681.152 JLINK_WriteReg(R12, 0x00000000)
T0CA0 7125:681.152 - 0.044ms returns 0
T0CA0 7125:681.152 JLINK_WriteReg(R13 (SP), 0x20001000)
T0CA0 7125:681.152 - 0.113ms returns 0
T0CA0 7125:681.152 JLINK_WriteReg(R14, 0x20000001)
T0CA0 7125:681.152 - 0.111ms returns 0
T0CA0 7125:681.152 JLINK_WriteReg(R15 (PC), 0x20000020)
T0CA0 7125:681.152 - 0.170ms returns 0
T0CA0 7125:681.152 JLINK_WriteReg(XPSR, 0x01000000)
T0CA0 7125:681.152 - 0.047ms returns 0
T0CA0 7125:681.664 JLINK_WriteReg(MSP, 0x20001000)
T0CA0 7125:681.664 - 0.113ms returns 0
T0CA0 7125:681.664 JLINK_WriteReg(PSP, 0x20001000)
T0CA0 7125:681.664 - 0.111ms returns 0
T0CA0 7125:681.664 JLINK_WriteReg(CFBP, 0x00000000)
T0CA0 7125:681.664 - 0.047ms returns 0
T0CA0 7125:681.664 JLINK_SetBPEx(Addr = 0x20000000, Type = 0xFFFFFFF2)
T0CA0 7125:681.664 - 0.046ms returns 0x0000000C
T0CA0 7125:681.664 JLINK_Go()
T0CA0 7125:682.688   CPU_ReadMem(4 bytes @ 0xE0001000)
T0CA0 7125:694.976 - 12.553ms 
T0CA0 7125:694.976 JLINK_IsHalted()
T0CA0 7125:707.264   CPU_ReadMem(2 bytes @ 0x20000000)
T0CA0 7125:708.800 - 13.618ms returns TRUE
T0CA0 7125:708.800 JLINK_ReadReg(R15 (PC))
T0CA0 7125:709.824 - 0.289ms returns 0x20000000
T0CA0 7125:709.824 JLINK_ClrBPEx(BPHandle = 0x0000000C)
T0CA0 7125:709.824 - 0.318ms returns 0x00
T0CA0 7125:711.360 JLINK_ReadReg(R0)
T0CA0 7125:711.360 - 0.220ms returns 0x00000001
T0CA0 7125:711.360 JLINK_HasError()
T0CA0 7125:711.872 JLINK_WriteReg(R0, 0x08002800)
T0CA0 7125:711.872 - 0.180ms returns 0
T0CA0 7125:711.872 JLINK_WriteReg(R1, 0x00000800)
T0CA0 7125:711.872 - 0.265ms returns 0
T0CA0 7125:712.896 JLINK_WriteReg(R2, 0x000000FF)
T0CA0 7125:712.896 - 0.205ms returns 0
T0CA0 7125:712.896 JLINK_WriteReg(R3, 0x00000000)
T0CA0 7125:712.896 - 0.044ms returns 0
T0CA0 7125:712.896 JLINK_WriteReg(R4, 0x00000000)
T0CA0 7125:712.896 - 0.110ms returns 0
T0CA0 7125:713.920 JLINK_WriteReg(R5, 0x00000000)
T0CA0 7125:713.920 - 0.109ms returns 0
T0CA0 7125:713.920 JLINK_WriteReg(R6, 0x00000000)
T0CA0 7125:713.920 - 0.139ms returns 0
T0CA0 7125:713.920 JLINK_WriteReg(R7, 0x00000000)
T0CA0 7125:713.920 - 0.063ms returns 0
T0CA0 7125:714.432 JLINK_WriteReg(R8, 0x00000000)
T0CA0 7125:714.432 - 0.114ms returns 0
T0CA0 7125:714.432 JLINK_WriteReg(R9, 0x2000016C)
T0CA0 7125:714.432 - 0.042ms returns 0
T0CA0 7125:714.432 JLINK_WriteReg(R10, 0x00000000)
T0CA0 7125:714.432 - 0.091ms returns 0
T0CA0 7125:714.432 JLINK_WriteReg(R11, 0x00000000)
T0CA0 7125:714.432 - 0.042ms returns 0
T0CA0 7125:714.432 JLINK_WriteReg(R12, 0x00000000)
T0CA0 7125:714.432 - 0.102ms returns 0
T0CA0 7125:715.456 JLINK_WriteReg(R13 (SP), 0x20001000)
T0CA0 7125:715.456 - 0.127ms returns 0
T0CA0 7125:715.456 JLINK_WriteReg(R14, 0x20000001)
T0CA0 7125:715.456 - 0.112ms returns 0
T0CA0 7125:715.456 JLINK_WriteReg(R15 (PC), 0x200000B8)
T0CA0 7125:715.456 - 0.044ms returns 0
T0CA0 7125:715.456 JLINK_WriteReg(XPSR, 0x01000000)
T0CA0 7125:715.456 - 0.094ms returns 0
T0CA0 7125:715.456 JLINK_WriteReg(MSP, 0x20001000)
T0CA0 7125:715.456 - 0.107ms returns 0
T0CA0 7125:715.968 JLINK_WriteReg(PSP, 0x20001000)
T0CA0 7125:715.968 - 0.102ms returns 0
T0CA0 7125:715.968 JLINK_WriteReg(CFBP, 0x00000000)
T0CA0 7125:715.968 - 0.108ms returns 0
T0CA0 7125:715.968 JLINK_SetBPEx(Addr = 0x20000000, Type = 0xFFFFFFF2)
T0CA0 7125:715.968 - 0.045ms returns 0x0000000D
T0CA0 7125:715.968 JLINK_Go()
T0CA0 7125:715.968   CPU_ReadMem(4 bytes @ 0xE0001000)
T0CA0 7125:728.256 - 12.497ms 
T0CA0 7125:729.280 JLINK_IsHalted()
T0CA0 7125:730.816 - 1.353ms returns FALSE
T0CA0 7125:730.816 JLINK_HasError()
T0CA0 7125:733.376 JLINK_IsHalted()
T0CA0 7125:734.912 - 1.923ms returns FALSE
T0CA0 7125:734.912 JLINK_HasError()
T0CA0 7125:738.496 JLINK_IsHalted()
T0CA0 7125:740.032 - 1.599ms returns FALSE
T0CA0 7125:740.032 JLINK_HasError()
T0CA0 7125:741.568 JLINK_IsHalted()
T0CA0 7125:744.128 - 1.890ms returns FALSE
T0CA0 7125:744.128 JLINK_HasError()
T0CA0 7125:745.664 JLINK_IsHalted()
T0CA0 7125:748.224 - 2.104ms returns FALSE
T0CA0 7125:748.224 JLINK_HasError()
T0CA0 7125:750.784 JLINK_IsHalted()
T0CA0 7125:763.072   CPU_ReadMem(2 bytes @ 0x20000000)
T0CA0 7125:764.608 - 13.878ms returns TRUE
T0CA0 7125:764.608 JLINK_ReadReg(R15 (PC))
T0CA0 7125:765.120 - 0.140ms returns 0x20000000
T0CA0 7125:765.120 JLINK_ClrBPEx(BPHandle = 0x0000000D)
T0CA0 7125:765.120 - 0.052ms returns 0x00
T0CA0 7125:765.120 JLINK_ReadReg(R0)
T0CA0 7125:765.120 - 0.176ms returns 0x00000000
T0CA0 7125:766.144 JLINK_HasError()
T0CA0 7125:766.144 JLINK_WriteReg(R0, 0x00000001)
T0CA0 7125:766.144 - 0.413ms returns 0
T0CA0 7125:767.168 JLINK_WriteReg(R1, 0x00000800)
T0CA0 7125:767.168 - 0.265ms returns 0
T0CA0 7125:767.680 JLINK_WriteReg(R2, 0x000000FF)
T0CA0 7125:767.680 - 0.176ms returns 0
T0CA0 7125:767.680 JLINK_WriteReg(R3, 0x00000000)
T0CA0 7125:767.680 - 0.208ms returns 0
T0CA0 7125:768.704 JLINK_WriteReg(R4, 0x00000000)
T0CA0 7125:768.704 - 0.182ms returns 0
T0CA0 7125:768.704 JLINK_WriteReg(R5, 0x00000000)
T0CA0 7125:768.704 - 0.166ms returns 0
T0CA0 7125:769.216 JLINK_WriteReg(R6, 0x00000000)
T0CA0 7125:769.216 - 0.304ms returns 0
T0CA0 7125:769.216 JLINK_WriteReg(R7, 0x00000000)
T0CA0 7125:769.216 - 0.107ms returns 0
T0CA0 7125:769.216 JLINK_WriteReg(R8, 0x00000000)
T0CA0 7125:769.216 - 0.053ms returns 0
T0CA0 7125:770.240 JLINK_WriteReg(R9, 0x2000016C)
T0CA0 7125:770.240 - 0.044ms returns 0
T0CA0 7125:770.240 JLINK_WriteReg(R10, 0x00000000)
T0CA0 7125:770.240 - 0.044ms returns 0
T0CA0 7125:770.240 JLINK_WriteReg(R11, 0x00000000)
T0CA0 7125:770.240 - 0.107ms returns 0
T0CA0 7125:770.240 JLINK_WriteReg(R12, 0x00000000)
T0CA0 7125:770.240 - 0.047ms returns 0
T0CA0 7125:770.240 JLINK_WriteReg(R13 (SP), 0x20001000)
T0CA0 7125:771.264 - 0.130ms returns 0
T0CA0 7125:771.264 JLINK_WriteReg(R14, 0x20000001)
T0CA0 7125:771.264 - 0.106ms returns 0
T0CA0 7125:771.264 JLINK_WriteReg(R15 (PC), 0x20000066)
T0CA0 7125:771.264 - 0.104ms returns 0
T0CA0 7125:771.264 JLINK_WriteReg(XPSR, 0x01000000)
T0CA0 7125:771.264 - 0.161ms returns 0
T0CA0 7125:771.264 JLINK_WriteReg(MSP, 0x20001000)
T0CA0 7125:771.776 - 0.124ms returns 0
T0CA0 7125:771.776 JLINK_WriteReg(PSP, 0x20001000)
T0CA0 7125:771.776 - 0.109ms returns 0
T0CA0 7125:771.776 JLINK_WriteReg(CFBP, 0x00000000)
T0CA0 7125:771.776 - 0.106ms returns 0
T0CA0 7125:771.776 JLINK_SetBPEx(Addr = 0x20000000, Type = 0xFFFFFFF2)
T0CA0 7125:771.776 - 0.109ms returns 0x0000000E
T0CA0 7125:771.776 JLINK_Go()
T0CA0 7125:771.776   CPU_ReadMem(4 bytes @ 0xE0001000)
T0CA0 7125:785.088 - 12.415ms 
T0CA0 7125:785.088 JLINK_IsHalted()
T0CA0 7125:796.352   CPU_ReadMem(2 bytes @ 0x20000000)
T0CA0 7125:798.912 - 13.732ms returns TRUE
T0CA0 7125:798.912 JLINK_ReadReg(R15 (PC))
T0CA0 7125:798.912 - 0.214ms returns 0x20000000
T0CA0 7125:799.936 JLINK_ClrBPEx(BPHandle = 0x0000000E)
T0CA0 7125:799.936 - 0.228ms returns 0x00
T0CA0 7125:799.936 JLINK_ReadReg(R0)
T0CA0 7125:800.448 - 0.441ms returns 0x00000000
T0CA0 7125:858.816 JLINK_WriteMem(0x20000000, 0x170 Bytes, ...)
T0CA0 7125:859.328   Data:  00 BE 0A E0 0D 78 2D 06 68 40 08 24 40 00 00 D3 ...
T0CA0 7125:859.328   CPU_WriteMem(368 bytes @ 0x20000000)
T0CA0 7125:870.080 - 11.430ms returns 0x170
T0CA0 7125:871.104 JLINK_HasError()
T0CA0 7125:871.104 JLINK_WriteReg(R0, 0x08000000)
T0CA0 7125:871.104 - 0.158ms returns 0
T0CA0 7125:871.104 JLINK_WriteReg(R1, 0x007A1200)
T0CA0 7125:871.616 - 0.290ms returns 0
T0CA0 7125:871.616 JLINK_WriteReg(R2, 0x00000002)
T0CA0 7125:871.616 - 0.051ms returns 0
T0CA0 7125:872.640 JLINK_WriteReg(R3, 0x00000000)
